Time[s], Channel 0, Channel 1, Channel 2, Channel 3, Channel 4, Channel 5, Channel 6, Channel 7
1.4859056875, 0, 0, 0, 0, 0, 0, 0, 0
1.4860056875, 1, 1, 1, 0, 1, 1, 1, 0
1.48600575, 1, 1, 1, 1, 1, 1, 1, 1
1.4860059375, 0, 0, 0, 0, 0, 0, 0, 0
1.4860069375, 1, 1, 1, 1, 1, 1, 1, 1
1.4860071875, 0, 0, 0, 0, 0, 0, 0, 0
1.4860081875, 1, 1, 1, 1, 1, 1, 1, 1
1.4860084375, 0, 0, 0, 0, 0, 0, 0, 0
1.4860094375, 1, 1, 1, 1, 1, 1, 1, 1
1.4860096875, 0, 0, 0, 0, 0, 0, 0, 0
1.4860106875, 1, 1, 1, 1, 1, 1, 1, 1
1.4860109375, 0, 0, 0, 0, 1, 0, 0, 0
1.486011625, 0, 0, 0, 0, 0, 0, 0, 0
1.4860119375, 1, 1, 1, 1, 1, 1, 1, 1
1.4860121875, 0, 0, 0, 1, 0, 1, 0, 0
1.486012875, 0, 0, 0, 0, 0, 0, 0, 0
1.4860131875, 1, 1, 1, 1, 1, 1, 1, 1
1.4860134375, 0, 0, 0, 0, 0, 0, 1, 0
1.486014125, 0, 0, 0, 0, 0, 0, 0, 0
1.4860144375, 1, 1, 1, 1, 1, 1, 1, 1
1.4860146875, 0, 0, 0, 0, 1, 1, 0, 0
1.486015375, 0, 0, 0, 0, 0, 0, 0, 0
1.4860156875, 1, 1, 1, 1, 1, 1, 1, 1
1.4860159375, 0, 0, 0, 0, 0, 0, 0, 0
1.4860169375, 1, 1, 1, 1, 1, 1, 1, 1
1.4860171875, 0, 0, 0, 0, 1, 1, 1, 0
1.486017875, 0, 0, 0, 0, 0, 0, 0, 0
1.4860181875, 1, 1, 1, 1, 1, 1, 1, 1
1.4860184375, 0, 0, 0, 0, 0, 1, 1, 0
1.486019125, 0, 0, 0, 0, 0, 0, 0, 0
1.4860194375, 1, 1, 1, 1, 1, 1, 1, 1
1.4860196875, 0, 0, 0, 1, 1, 1, 0, 0
1.486020375, 0, 0, 0, 0, 0, 0, 0, 0
1.4860206875, 1, 1, 1, 1, 1, 1, 1, 1
1.4860209375, 0, 0, 0, 1, 1, 1, 1, 0
1.486021625, 0, 0, 0, 0, 0, 0, 0, 0
1.4860219375, 1, 1, 1, 1, 1, 1, 1, 1
1.4860221875, 0, 0, 0, 1, 1, 1, 1, 0
1.486022875, 0, 0, 0, 0, 0, 0, 0, 0
1.4860231875, 1, 1, 1, 1, 1, 1, 1, 1
1.4860234375, 0, 0, 0, 0, 0, 0, 1, 0
1.486024125, 0, 0, 0, 0, 0, 0, 0, 0
1.4860244375, 1, 1, 1, 1, 1, 1, 1, 1
1.4860246875, 0, 0, 0, 0, 0, 0, 0, 0
1.4860256875, 1, 1, 1, 1, 1, 1, 1, 1
1.4860259375, 0, 0, 0, 0, 0, 0, 0, 0
1.4860269375, 1, 1, 1, 1, 1, 1, 1, 1
1.4860271875, 0, 0, 0, 0, 1, 1, 1, 0
1.486027875, 0, 0, 0, 0, 0, 0, 0, 0
1.4860281875, 1, 1, 1, 1, 1, 1, 0, 1
1.48602825, 1, 1, 1, 1, 1, 1, 1, 1
1.4860284375, 0, 0, 0, 0, 0, 0, 0, 0
1.4860294375, 1, 1, 1, 1, 1, 1, 1, 1
1.4860296875, 0, 0, 0, 1, 0, 1, 0, 0
1.486030375, 0, 0, 0, 0, 0, 0, 0, 0
1.4860306875, 1, 1, 1, 1, 1, 1, 1, 1
1.4860309375, 0, 0, 0, 0, 0, 1, 1, 0
1.486031625, 0, 0, 0, 0, 0, 0, 0, 0
1.4860319375, 1, 1, 1, 1, 1, 1, 1, 1
1.4860321875, 0, 0, 0, 1, 1, 0, 1, 0
1.486032875, 0, 0, 0, 0, 0, 0, 0, 0
1.4860331875, 1, 1, 1, 1, 1, 1, 1, 1
1.4860334375, 0, 0, 0, 0, 0, 0, 0, 0
1.4860344375, 1, 1, 1, 1, 1, 1, 1, 1
1.4860346875, 0, 0, 0, 0, 0, 0, 0, 0
1.48603475, 0, 0, 0, 1, 0, 0, 1, 0
1.486035375, 0, 0, 0, 0, 0, 0, 0, 0
1.4860356875, 1, 1, 1, 1, 1, 1, 1, 1
1.4860359375, 0, 0, 0, 0, 0, 0, 0, 0
1.4860369375, 1, 1, 1, 1, 1, 1, 1, 1
1.4860371875, 0, 0, 0, 0, 0, 0, 0, 0
1.4860381875, 1, 1, 1, 1, 1, 1, 1, 1
1.4860384375, 0, 0, 0, 0, 0, 0, 0, 0
1.4860394375, 1, 1, 1, 1, 1, 1, 1, 1
1.4860396875, 0, 0, 0, 1, 1, 1, 0, 0
1.486040375, 0, 0, 0, 0, 0, 0, 0, 0
1.4860406875, 1, 1, 1, 1, 1, 1, 1, 1
1.4860409375, 0, 0, 1, 1, 1, 0, 1, 0
1.486041625, 0, 0, 0, 0, 0, 0, 0, 0
1.4860419375, 1, 1, 1, 1, 1, 1, 0, 1
1.486042, 1, 1, 1, 1, 1, 1, 1, 1
1.4860421875, 0, 0, 0, 1, 1, 1, 0, 0
1.486042875, 0, 0, 0, 0, 0, 0, 0, 0
1.4860431875, 1, 1, 1, 1, 1, 1, 1, 1
1.4860434375, 0, 0, 1, 1, 1, 1, 1, 0
1.486044125, 0, 0, 0, 0, 0, 0, 0, 0
1.4860444375, 1, 1, 1, 1, 1, 1, 1, 1
1.4860446875, 0, 0, 1, 0, 0, 0, 0, 0
1.486045375, 0, 0, 0, 0, 0, 0, 0, 0
1.4860456875, 1, 1, 1, 1, 1, 1, 1, 1
1.4860459375, 0, 0, 0, 0, 1, 0, 1, 0
1.486046625, 0, 0, 0, 0, 0, 0, 0, 0
1.4860469375, 1, 1, 1, 1, 1, 1, 0, 1
1.486047, 1, 1, 1, 1, 1, 1, 1, 1
1.4860471875, 0, 0, 0, 1, 0, 1, 0, 0
1.486047875, 0, 0, 0, 0, 0, 0, 0, 0
1.4860481875, 1, 1, 1, 1, 1, 1, 1, 1
1.4860484375, 0, 0, 1, 1, 0, 1, 0, 0
1.486049125, 0, 0, 0, 0, 0, 0, 0, 0
1.4860494375, 1, 1, 1, 1, 1, 1, 1, 1
1.4860496875, 0, 0, 0, 1, 0, 1, 0, 0
1.486050375, 0, 0, 0, 0, 0, 0, 0, 0
1.4860506875, 1, 1, 1, 1, 1, 1, 1, 1
1.4860509375, 0, 0, 1, 1, 0, 1, 0, 0
1.486051625, 0, 0, 0, 0, 0, 0, 0, 0
1.4860519375, 1, 1, 1, 1, 1, 1, 1, 1
1.4860521875, 0, 0, 1, 1, 0, 1, 0, 0
1.486052875, 0, 0, 0, 0, 0, 0, 0, 0
1.4860531875, 1, 1, 1, 1, 1, 1, 1, 1
1.4860534375, 0, 0, 1, 1, 0, 1, 0, 0
1.486054125, 0, 0, 0, 0, 0, 0, 0, 0
1.4860544375, 1, 1, 1, 1, 1, 1, 1, 1
1.4860546875, 0, 0, 0, 1, 0, 1, 0, 0
1.486055375, 0, 0, 0, 0, 0, 0, 0, 0
1.4860556875, 1, 1, 1, 1, 1, 1, 1, 1
1.4860559375, 0, 0, 0, 0, 0, 0, 0, 0
1.4860569375, 1, 1, 1, 1, 1, 1, 1, 1
1.4860571875, 0, 0, 0, 1, 1, 1, 1, 0
1.486057875, 0, 0, 0, 0, 0, 0, 0, 0
1.4860581875, 1, 1, 1, 1, 1, 1, 1, 1
1.4860584375, 0, 0, 1, 1, 1, 1, 0, 0
1.486059125, 0, 0, 0, 0, 0, 0, 0, 0
1.4860594375, 1, 1, 1, 1, 1, 1, 1, 1
1.4860596875, 0, 0, 0, 0, 0, 0, 0, 0
1.48605975, 0, 0, 0, 0, 0, 0, 1, 0
1.486060375, 0, 0, 0, 0, 0, 0, 0, 0
1.4860606875, 1, 1, 1, 1, 1, 1, 1, 1
1.4860609375, 0, 0, 0, 0, 0, 0, 1, 0
1.486061625, 0, 0, 0, 0, 0, 0, 0, 0
1.4860619375, 1, 1, 1, 1, 1, 1, 1, 1
1.4860621875, 0, 0, 1, 1, 1, 0, 1, 0
1.486062875, 0, 0, 0, 0, 0, 0, 0, 0
1.4860631875, 1, 1, 1, 1, 1, 1, 1, 1
1.4860634375, 0, 0, 0, 0, 0, 1, 0, 0
1.486064125, 0, 0, 0, 0, 0, 0, 0, 0
1.4860644375, 1, 1, 1, 1, 1, 1, 1, 1
1.4860646875, 0, 0, 0, 1, 1, 0, 1, 0
1.486065375, 0, 0, 0, 0, 0, 0, 0, 0
1.4860656875, 1, 1, 1, 1, 1, 1, 1, 1
1.4860659375, 0, 0, 0, 0, 0, 0, 0, 0
1.4860669375, 1, 1, 1, 1, 1, 1, 1, 1
1.4860671875, 0, 0, 0, 0, 0, 0, 0, 0
1.4860681875, 1, 1, 1, 1, 1, 1, 0, 1
1.48606825, 1, 1, 1, 1, 1, 1, 1, 1
1.4860684375, 0, 0, 1, 1, 1, 1, 0, 0
1.486069125, 0, 0, 0, 0, 0, 0, 0, 0
1.4860694375, 1, 1, 1, 1, 1, 1, 1, 1
1.4860696875, 0, 0, 0, 0, 0, 0, 1, 1
1.48606975, 0, 0, 0, 0, 0, 0, 1, 0
1.486070375, 0, 0, 0, 0, 0, 0, 0, 0
1.4860706875, 1, 1, 1, 1, 1, 1, 1, 1
1.4860709375, 0, 1, 0, 1, 1, 0, 0, 0
1.486071625, 0, 0, 0, 0, 0, 0, 0, 0
1.4860719375, 1, 1, 1, 1, 1, 1, 1, 1
1.4860721875, 0, 1, 1, 1, 1, 1, 1, 0
1.486072875, 0, 0, 0, 0, 0, 0, 0, 0
1.4860731875, 1, 1, 1, 1, 1, 1, 1, 1
1.4860734375, 0, 1, 1, 1, 1, 1, 1, 0
1.486074125, 0, 0, 0, 0, 0, 0, 0, 0
1.4860744375, 1, 1, 1, 1, 1, 1, 1, 1
1.4860746875, 0, 0, 0, 1, 1, 0, 1, 0
1.486075375, 0, 0, 0, 0, 0, 0, 0, 0
1.4860756875, 1, 1, 1, 1, 1, 1, 1, 1
1.4860759375, 0, 0, 0, 0, 1, 1, 1, 0
1.486076625, 0, 0, 0, 0, 0, 0, 0, 0
1.4860769375, 1, 1, 1, 1, 1, 1, 1, 1
1.4860771875, 0, 0, 1, 1, 0, 0, 0, 0
1.486077875, 0, 0, 0, 0, 0, 0, 0, 0
1.4860781875, 1, 1, 1, 1, 1, 1, 1, 1
1.4860784375, 0, 1, 1, 1, 0, 0, 0, 0
1.486079125, 0, 0, 0, 0, 0, 0, 0, 0
1.4860794375, 1, 1, 1, 1, 1, 1, 1, 1
1.4860796875, 0, 1, 1, 1, 0, 0, 0, 0
1.486080375, 0, 0, 0, 0, 0, 0, 0, 0
1.4860806875, 1, 1, 1, 1, 1, 1, 1, 1
1.4860809375, 0, 1, 1, 1, 0, 0, 0, 0
1.486081625, 0, 0, 0, 0, 0, 0, 0, 0
1.4860819375, 1, 1, 1, 1, 1, 1, 1, 1
1.4860821875, 0, 0, 1, 1, 0, 0, 0, 0
1.486082875, 0, 0, 0, 0, 0, 0, 0, 0
1.4860831875, 1, 1, 1, 1, 1, 1, 1, 1
1.4860834375, 0, 0, 0, 1, 0, 0, 0, 0
1.486084125, 0, 0, 0, 0, 0, 0, 0, 0
1.4860844375, 1, 1, 1, 1, 1, 1, 1, 1
1.4860846875, 0, 0, 0, 0, 0, 0, 0, 0
1.48608475, 0, 0, 0, 1, 0, 0, 0, 0
1.486085375, 0, 0, 0, 0, 0, 0, 0, 0
1.4860856875, 1, 1, 1, 1, 1, 1, 1, 1
1.4860859375, 0, 0, 0, 0, 0, 0, 0, 0
1.4860869375, 1, 1, 1, 1, 1, 1, 1, 1
1.4860871875, 0, 0, 1, 1, 1, 1, 1, 0
1.486087875, 0, 0, 0, 0, 0, 0, 0, 0
1.4860881875, 1, 1, 1, 1, 1, 1, 1, 1
1.4860884375, 0, 1, 1, 1, 1, 1, 1, 0
1.486089125, 0, 0, 0, 0, 0, 0, 0, 0
1.4860894375, 1, 1, 1, 1, 1, 1, 1, 1
1.4860896875, 0, 0, 0, 0, 0, 0, 0, 0
1.4860906875, 1, 1, 1, 1, 1, 1, 1, 1
1.4860909375, 0, 1, 0, 1, 1, 1, 0, 0
1.486091625, 0, 0, 0, 0, 0, 0, 0, 0
1.4860919375, 1, 1, 1, 1, 1, 1, 1, 1
1.4860921875, 0, 1, 1, 1, 1, 0, 0, 0
1.486092875, 0, 0, 0, 0, 0, 0, 0, 0
1.4860931875, 1, 1, 1, 1, 1, 1, 1, 1
1.4860934375, 0, 0, 0, 0, 0, 0, 0, 0
1.4860935, 0, 0, 0, 0, 0, 0, 1, 0
1.486094125, 0, 0, 0, 0, 0, 0, 0, 0
1.4860944375, 1, 1, 1, 1, 1, 1, 1, 1
1.4860946875, 0, 0, 1, 1, 0, 0, 0, 0
1.48609475, 0, 0, 1, 0, 0, 0, 0, 0
1.486095375, 0, 0, 0, 0, 0, 0, 0, 0
1.4860956875, 1, 1, 1, 1, 1, 1, 1, 1
1.4860959375, 0, 0, 0, 0, 0, 0, 0, 0
1.4860969375, 1, 1, 1, 1, 1, 1, 1, 1
1.4860971875, 0, 0, 0, 0, 0, 0, 0, 0
1.4860981875, 1, 1, 1, 1, 1, 1, 0, 1
1.48609825, 1, 1, 1, 1, 1, 1, 1, 1
1.4860984375, 0, 0, 1, 1, 1, 1, 0, 0
1.486099125, 0, 0, 0, 0, 0, 0, 0, 0
1.4860994375, 1, 1, 1, 1, 1, 1, 1, 1
1.4860996875, 0, 1, 1, 1, 1, 1, 1, 0
1.486100375, 0, 0, 0, 0, 0, 0, 0, 0
1.4861006875, 1, 1, 1, 1, 1, 1, 1, 1
1.4861009375, 1, 1, 1, 1, 1, 0, 1, 0
1.486101, 1, 1, 0, 1, 1, 0, 1, 0
1.486101625, 0, 0, 0, 0, 0, 0, 0, 0
1.4861019375, 1, 1, 1, 1, 1, 1, 1, 1
1.4861021875, 0, 1, 0, 1, 0, 0, 1, 0
1.486102875, 0, 0, 0, 0, 0, 0, 0, 0
1.4861031875, 1, 1, 1, 1, 1, 1, 1, 1
1.4861034375, 0, 0, 0, 0, 0, 0, 0, 0
1.4861035, 0, 1, 0, 0, 1, 0, 0, 0
1.486104125, 0, 0, 0, 0, 0, 0, 0, 0
1.4861044375, 1, 1, 1, 1, 1, 1, 1, 1
1.4861046875, 0, 1, 1, 1, 1, 0, 1, 1
1.48610475, 0, 1, 0, 0, 1, 0, 1, 0
1.486105375, 0, 0, 0, 0, 0, 0, 0, 0
1.4861056875, 1, 1, 1, 1, 1, 1, 1, 1
1.4861059375, 0, 0, 1, 1, 1, 1, 0, 0
1.486106625, 0, 0, 0, 0, 0, 0, 0, 0
1.4861069375, 1, 1, 1, 1, 1, 1, 1, 1
1.4861071875, 0, 1, 1, 1, 0, 1, 1, 1
1.48610725, 0, 1, 0, 0, 0, 0, 1, 0
1.486107875, 0, 0, 0, 0, 0, 0, 0, 0
1.4861081875, 1, 1, 1, 1, 1, 1, 1, 1
1.4861085, 1, 1, 1, 1, 1, 0, 0, 1
1.4861085625, 1, 1, 0, 0, 0, 0, 1, 1
1.48610875, 1, 1, 0, 0, 0, 0, 1, 0
1.486109125, 0, 0, 0, 0, 0, 0, 0, 0
1.4861094375, 1, 1, 1, 1, 1, 1, 1, 1
1.4861096875, 1, 0, 0, 0, 0, 0, 0, 0
1.48610975, 1, 1, 0, 0, 0, 0, 1, 0
1.486110375, 0, 0, 0, 0, 0, 0, 0, 0
1.4861106875, 1, 1, 1, 1, 1, 1, 1, 1
1.4861109375, 1, 1, 1, 0, 0, 0, 0, 0
1.486111, 1, 1, 0, 0, 0, 0, 0, 0
1.486111625, 0, 0, 0, 0, 0, 0, 0, 0
1.4861119375, 1, 1, 1, 1, 1, 1, 1, 1
1.4861121875, 0, 0, 0, 0, 0, 0, 0, 0
1.48611225, 0, 1, 0, 0, 0, 0, 0, 0
1.486112875, 0, 0, 0, 0, 0, 0, 0, 0
1.4861131875, 1, 1, 1, 1, 1, 1, 1, 1
1.4861134375, 1, 0, 0, 0, 0, 0, 0, 1
1.4861135, 1, 0, 0, 0, 0, 0, 0, 0
1.486114125, 0, 0, 0, 0, 0, 0, 0, 0
1.4861144375, 1, 1, 1, 1, 1, 1, 1, 1
1.4861146875, 0, 1, 0, 0, 0, 0, 0, 0
1.486115375, 0, 0, 0, 0, 0, 0, 0, 0
1.4861156875, 1, 1, 1, 1, 1, 1, 1, 1
1.4861159375, 0, 0, 0, 0, 0, 0, 0, 0
1.4861169375, 1, 1, 1, 1, 1, 1, 1, 0
1.486117, 1, 1, 1, 1, 1, 1, 1, 1
1.4861171875, 0, 1, 1, 1, 1, 1, 1, 0
1.486117875, 0, 0, 0, 0, 0, 0, 0, 0
1.4861181875, 1, 1, 1, 1, 1, 1, 1, 1
1.4861184375, 1, 1, 1, 1, 1, 1, 0, 0
1.486119125, 0, 0, 0, 0, 0, 0, 0, 0
1.4861194375, 1, 1, 1, 1, 1, 1, 1, 1
1.4861196875, 0, 0, 0, 1, 1, 0, 1, 0
1.486120375, 0, 0, 0, 0, 0, 0, 0, 0
1.4861206875, 1, 1, 1, 1, 1, 1, 1, 1
1.4861209375, 1, 0, 1, 0, 0, 1, 1, 0
1.486121625, 0, 0, 0, 0, 0, 0, 0, 0
1.4861219375, 1, 1, 1, 1, 1, 1, 1, 1
1.4861221875, 1, 1, 1, 0, 0, 1, 0, 0
1.486122875, 0, 0, 0, 0, 0, 0, 0, 0
1.4861231875, 1, 1, 1, 1, 1, 1, 1, 1
1.4861234375, 0, 0, 0, 0, 1, 0, 1, 0
1.486124125, 0, 0, 0, 0, 0, 0, 0, 0
1.4861244375, 1, 1, 1, 1, 1, 1, 0, 1
1.4861245, 1, 1, 1, 1, 1, 1, 1, 1
1.4861246875, 0, 0, 0, 0, 0, 0, 0, 0
1.48612475, 0, 0, 0, 1, 0, 0, 0, 0
1.486125375, 0, 0, 0, 0, 0, 0, 0, 0
1.4861256875, 1, 1, 1, 1, 1, 1, 1, 1
1.4861259375, 0, 0, 0, 0, 0, 0, 0, 0
1.4861269375, 1, 1, 1, 1, 1, 1, 1, 1
1.4861271875, 0, 0, 0, 0, 0, 0, 0, 0
1.4861281875, 1, 1, 1, 1, 1, 1, 1, 0
1.48612825, 1, 1, 1, 1, 1, 1, 1, 1
1.4861284375, 0, 0, 1, 1, 1, 1, 0, 0
1.486129125, 0, 0, 0, 0, 0, 0, 0, 0
1.4861294375, 1, 1, 1, 1, 1, 1, 1, 1
1.4861296875, 0, 1, 1, 1, 1, 1, 1, 0
1.486130375, 0, 0, 0, 0, 0, 0, 0, 0
1.4861306875, 1, 1, 1, 1, 1, 1, 1, 0
1.48613075, 1, 1, 1, 1, 1, 1, 1, 1
1.4861309375, 1, 0, 0, 1, 1, 0, 1, 0
1.486131, 1, 1, 0, 1, 1, 0, 1, 0
1.486131625, 0, 0, 0, 0, 0, 0, 0, 0
1.4861319375, 1, 1, 1, 1, 1, 1, 1, 1
1.4861321875, 0, 1, 1, 1, 1, 0, 1, 0
1.48613225, 0, 1, 0, 1, 1, 0, 1, 0
1.486132875, 0, 0, 0, 0, 0, 0, 0, 0
1.4861331875, 1, 1, 1, 1, 1, 1, 1, 1
1.4861334375, 0, 1, 0, 0, 0, 0, 0, 0
1.486134125, 0, 0, 0, 0, 0, 0, 0, 0
1.4861344375, 1, 1, 1, 1, 1, 1, 1, 0
1.4861345, 1, 1, 1, 1, 1, 1, 1, 1
1.4861346875, 0, 0, 0, 0, 0, 0, 0, 0
1.48613475, 0, 1, 0, 0, 0, 0, 1, 0
1.486135375, 0, 0, 0, 0, 0, 0, 0, 0
1.4861356875, 1, 1, 1, 1, 1, 1, 1, 0
1.48613575, 1, 1, 1, 1, 1, 1, 1, 1
1.4861359375, 0, 0, 1, 1, 0, 0, 0, 0
1.486136625, 0, 0, 0, 0, 0, 0, 0, 0
1.4861369375, 1, 1, 1, 1, 1, 1, 1, 1
1.4861371875, 0, 0, 0, 0, 1, 1, 1, 0
1.48613725, 0, 1, 0, 0, 1, 1, 1, 0
1.486137875, 0, 0, 0, 0, 0, 0, 0, 0
1.4861381875, 1, 1, 1, 1, 1, 1, 1, 1
1.4861384375, 1, 1, 1, 0, 1, 1, 1, 1
1.4861385, 1, 1, 0, 0, 1, 1, 1, 0
1.486139125, 0, 0, 0, 0, 0, 0, 0, 0
1.4861394375, 1, 1, 1, 1, 1, 1, 1, 1
1.4861396875, 1, 1, 0, 0, 1, 1, 1, 0
1.486140375, 0, 0, 0, 0, 0, 0, 0, 0
1.4861406875, 1, 1, 1, 1, 1, 1, 1, 1
1.4861409375, 1, 0, 0, 0, 1, 1, 0, 0
1.486141, 1, 1, 0, 0, 1, 1, 0, 0
1.486141625, 0, 0, 0, 0, 0, 0, 0, 0
1.4861419375, 1, 1, 1, 1, 1, 1, 1, 1
1.4861421875, 0, 1, 1, 0, 1, 1, 1, 0
1.48614225, 0, 1, 0, 0, 1, 1, 0, 0
1.486142875, 0, 0, 0, 0, 0, 0, 0, 0
1.4861431875, 1, 1, 1, 1, 1, 1, 1, 1
1.4861434375, 1, 0, 0, 0, 1, 1, 1, 0
1.486144125, 0, 0, 0, 0, 0, 0, 0, 0
1.4861444375, 1, 1, 1, 1, 1, 1, 1, 1
1.4861446875, 1, 1, 1, 0, 1, 1, 1, 0
1.48614475, 1, 1, 0, 0, 1, 1, 0, 0
1.486145375, 0, 0, 0, 0, 0, 0, 0, 0
1.4861456875, 1, 1, 1, 1, 1, 1, 1, 1
1.4861459375, 0, 0, 0, 0, 0, 0, 0, 0
1.4861469375, 1, 1, 1, 1, 1, 1, 1, 1
1.4861471875, 0, 1, 1, 1, 1, 1, 1, 0
1.486147875, 0, 0, 0, 0, 0, 0, 0, 0
1.4861481875, 1, 1, 1, 1, 1, 1, 1, 1
1.4861484375, 1, 1, 1, 1, 1, 1, 0, 0
1.486149125, 0, 0, 0, 0, 0, 0, 0, 0
1.4861494375, 1, 1, 1, 1, 1, 1, 1, 1
1.4861496875, 0, 0, 0, 1, 1, 0, 1, 0
1.486150375, 0, 0, 0, 0, 0, 0, 0, 0
1.4861506875, 1, 1, 1, 1, 1, 1, 1, 1
1.4861509375, 1, 0, 1, 0, 0, 1, 1, 0
1.486151625, 0, 0, 0, 0, 0, 0, 0, 0
1.4861519375, 1, 1, 1, 1, 1, 1, 1, 1
1.4861521875, 1, 1, 1, 0, 0, 1, 1, 0
1.486152875, 0, 0, 0, 0, 0, 0, 0, 0
1.4861531875, 1, 1, 1, 1, 1, 1, 1, 1
1.4861534375, 0, 0, 0, 0, 0, 0, 0, 0
1.4861544375, 1, 1, 1, 1, 1, 1, 1, 0
1.4861545, 1, 1, 1, 1, 1, 1, 1, 1
1.4861546875, 0, 0, 0, 1, 1, 0, 0, 0
1.486155375, 0, 0, 0, 0, 0, 0, 0, 0
1.4861556875, 1, 1, 1, 1, 1, 1, 1, 1
1.4861559375, 0, 0, 0, 0, 0, 0, 0, 0
1.4861569375, 1, 1, 1, 1, 1, 1, 1, 1
1.4861571875, 0, 0, 0, 0, 0, 0, 0, 0
1.4861581875, 1, 1, 1, 1, 1, 1, 1, 1
1.4861584375, 0, 0, 1, 1, 1, 1, 0, 0
1.486159125, 0, 0, 0, 0, 0, 0, 0, 0
1.4861594375, 1, 1, 1, 1, 1, 1, 1, 1
1.4861596875, 0, 0, 0, 1, 0, 0, 0, 0
1.48615975, 0, 0, 0, 1, 0, 0, 1, 0
1.486160375, 0, 0, 0, 0, 0, 0, 0, 0
1.4861606875, 1, 1, 1, 1, 1, 1, 0, 0
1.48616075, 1, 1, 1, 1, 1, 1, 1, 1
1.4861609375, 0, 1, 1, 1, 1, 0, 1, 1
1.486161, 0, 1, 0, 0, 1, 0, 1, 0
1.486161625, 0, 0, 0, 0, 0, 0, 0, 0
1.4861619375, 1, 1, 1, 1, 1, 1, 1, 1
1.4861621875, 0, 1, 1, 0, 1, 1, 0, 0
1.486162875, 0, 0, 0, 0, 0, 0, 0, 0
1.4861631875, 1, 1, 1, 1, 1, 1, 1, 1
1.4861634375, 0, 0, 1, 0, 1, 1, 0, 0
1.486164125, 0, 0, 0, 0, 0, 0, 0, 0
1.4861644375, 1, 1, 1, 1, 1, 1, 1, 1
1.4861646875, 0, 0, 0, 0, 1, 0, 0, 0
1.486165375, 0, 0, 0, 0, 0, 0, 0, 0
1.4861656875, 1, 1, 1, 1, 1, 1, 0, 0
1.48616575, 1, 1, 1, 1, 1, 1, 1, 1
1.4861659375, 0, 0, 0, 0, 1, 1, 1, 0
1.486166625, 0, 0, 0, 0, 0, 0, 0, 0
1.4861669375, 1, 1, 1, 1, 1, 1, 1, 0
1.486167, 1, 1, 1, 1, 1, 1, 1, 1
1.4861671875, 0, 0, 1, 1, 0, 0, 0, 0
1.486167875, 0, 0, 0, 0, 0, 0, 0, 0
1.4861681875, 1, 1, 1, 1, 1, 1, 1, 1
1.4861684375, 0, 1, 1, 1, 0, 0, 0, 0
1.486169125, 0, 0, 0, 0, 0, 0, 0, 0
1.4861694375, 1, 1, 1, 1, 1, 1, 1, 1
1.4861696875, 0, 1, 1, 1, 0, 0, 0, 0
1.486170375, 0, 0, 0, 0, 0, 0, 0, 0
1.4861706875, 1, 1, 1, 1, 1, 1, 1, 1
1.4861709375, 0, 0, 1, 1, 0, 0, 0, 0
1.486171625, 0, 0, 0, 0, 0, 0, 0, 0
1.4861719375, 1, 1, 1, 1, 1, 1, 0, 0
1.486172, 1, 1, 1, 1, 1, 1, 1, 1
1.4861721875, 0, 0, 0, 1, 0, 0, 0, 0
1.486172875, 0, 0, 0, 0, 0, 0, 0, 0
1.4861731875, 1, 1, 1, 1, 1, 1, 1, 1
1.4861734375, 0, 1, 1, 1, 0, 0, 0, 0
1.486174125, 0, 0, 0, 0, 0, 0, 0, 0
1.4861744375, 1, 1, 1, 1, 1, 1, 1, 0
1.4861745, 1, 1, 1, 1, 1, 1, 1, 1
1.4861746875, 0, 1, 1, 1, 0, 0, 0, 0
1.486175375, 0, 0, 0, 0, 0, 0, 0, 0
1.4861756875, 1, 1, 1, 1, 1, 1, 1, 1
1.4861759375, 0, 0, 0, 0, 0, 0, 0, 0
1.4861769375, 1, 1, 1, 1, 1, 1, 1, 1
1.4861771875, 0, 0, 1, 1, 1, 1, 1, 0
1.486177875, 0, 0, 0, 0, 0, 0, 0, 0
1.4861781875, 1, 1, 1, 1, 1, 1, 1, 1
1.4861784375, 1, 1, 1, 1, 1, 1, 1, 0
1.4861785, 0, 1, 1, 1, 1, 1, 1, 0
1.486179125, 0, 0, 0, 0, 0, 0, 0, 0
1.4861794375, 1, 1, 1, 1, 1, 1, 1, 1
1.4861796875, 0, 0, 0, 0, 0, 0, 0, 0
1.4861806875, 1, 1, 1, 1, 1, 1, 1, 0
1.48618075, 1, 1, 1, 1, 1, 1, 1, 1
1.4861809375, 1, 1, 0, 1, 1, 1, 1, 0
1.486181, 0, 1, 0, 1, 1, 1, 0, 0
1.486181625, 0, 0, 0, 0, 0, 0, 0, 0
1.4861819375, 1, 1, 1, 1, 1, 1, 1, 1
1.4861821875, 0, 0, 1, 1, 1, 0, 0, 0
1.486182875, 0, 0, 0, 0, 0, 0, 0, 0
1.4861831875, 1, 1, 1, 1, 1, 1, 1, 1
1.4861834375, 0, 0, 0, 0, 0, 0, 1, 0
1.486184125, 0, 0, 0, 0, 0, 0, 0, 0
1.4861844375, 1, 1, 1, 1, 1, 1, 0, 0
1.4861845, 1, 1, 1, 1, 1, 1, 1, 1
1.4861846875, 0, 0, 0, 0, 0, 0, 0, 0
1.48618475, 0, 1, 1, 0, 0, 0, 0, 0
1.486185375, 0, 0, 0, 0, 0, 0, 0, 0
1.4861856875, 1, 1, 1, 1, 1, 1, 1, 1
1.4861859375, 0, 0, 0, 0, 0, 0, 0, 0
1.4861869375, 1, 1, 1, 1, 1, 1, 1, 0
1.486187, 1, 1, 1, 1, 1, 1, 1, 1
1.4861871875, 0, 0, 0, 0, 0, 0, 0, 0
1.4861881875, 1, 1, 1, 1, 1, 1, 1, 1
1.4861884375, 0, 0, 0, 0, 0, 0, 0, 0
1.4861894375, 1, 1, 1, 1, 1, 1, 1, 1
1.4861896875, 0, 0, 0, 1, 1, 1, 0, 0
1.486190375, 0, 0, 0, 0, 0, 0, 0, 0
1.4861906875, 1, 1, 1, 1, 1, 1, 1, 1
1.4861909375, 1, 1, 1, 1, 1, 0, 1, 0
1.486191, 0, 0, 1, 1, 1, 0, 1, 0
1.486191625, 0, 0, 0, 0, 0, 0, 0, 0
1.4861919375, 1, 1, 1, 1, 1, 1, 1, 0
1.486192, 1, 1, 1, 1, 1, 1, 1, 1
1.4861921875, 0, 0, 0, 1, 1, 1, 0, 0
1.486192875, 0, 0, 0, 0, 0, 0, 0, 0
1.4861931875, 1, 1, 1, 1, 1, 1, 1, 1
1.4861934375, 1, 1, 1, 0, 0, 1, 1, 1
1.4861935, 0, 0, 1, 0, 0, 1, 1, 1
1.486194125, 0, 0, 0, 0, 0, 0, 0, 0
1.4861944375, 1, 1, 1, 1, 1, 1, 1, 1
1.4861946875, 0, 0, 0, 1, 1, 0, 0, 0
1.486195375, 0, 0, 0, 0, 0, 0, 0, 0
1.4861956875, 1, 1, 1, 1, 1, 1, 1, 1
1.4861959375, 0, 0, 0, 0, 0, 1, 1, 0
1.486196625, 0, 0, 0, 0, 0, 0, 0, 0
1.4861969375, 1, 1, 1, 1, 1, 1, 1, 0
1.486197, 1, 1, 1, 1, 1, 1, 1, 1
1.4861971875, 0, 0, 0, 1, 1, 0, 1, 1
1.48619725, 0, 0, 0, 1, 1, 0, 0, 1
1.486197875, 0, 0, 0, 0, 0, 0, 0, 0
1.4861981875, 1, 1, 1, 1, 1, 1, 1, 1
1.4861984375, 0, 0, 1, 1, 1, 0, 0, 1
1.486199125, 0, 0, 0, 0, 0, 0, 0, 0
1.4861994375, 1, 1, 1, 1, 1, 1, 1, 1
1.4861996875, 1, 0, 0, 1, 1, 0, 1, 1
1.48619975, 0, 0, 0, 1, 1, 0, 0, 1
1.486200375, 0, 0, 0, 0, 0, 0, 0, 0
1.4862006875, 1, 1, 1, 1, 1, 1, 1, 1
1.4862009375, 0, 0, 1, 1, 1, 0, 0, 0
1.486201625, 0, 0, 0, 0, 0, 0, 0, 0
1.4862019375, 1, 1, 1, 1, 1, 1, 1, 1
1.4862021875, 0, 0, 0, 1, 1, 0, 0, 0
1.486202875, 0, 0, 0, 0, 0, 0, 0, 0
1.4862031875, 1, 1, 1, 1, 1, 1, 1, 1
1.4862034375, 1, 1, 1, 1, 1, 0, 1, 1
1.4862035, 0, 0, 1, 1, 1, 0, 0, 1
1.486204125, 0, 0, 0, 0, 0, 0, 0, 0
1.4862044375, 1, 1, 1, 1, 1, 1, 1, 1
1.4862046875, 0, 0, 0, 0, 1, 0, 0, 0
1.486205375, 0, 0, 0, 0, 0, 0, 0, 0
1.4862056875, 1, 1, 1, 1, 1, 1, 1, 0
1.48620575, 1, 1, 1, 1, 1, 1, 1, 1
1.4862059375, 0, 0, 0, 0, 0, 0, 0, 0
1.4862069375, 1, 1, 1, 1, 1, 1, 1, 1
1.4862071875, 0, 0, 0, 1, 1, 1, 1, 1
1.486207875, 0, 0, 0, 0, 0, 0, 0, 0
1.4862081875, 1, 1, 1, 1, 1, 1, 1, 1
1.4862084375, 0, 0, 1, 1, 1, 1, 0, 0
1.486209125, 0, 0, 0, 0, 0, 0, 0, 0
1.4862094375, 1, 1, 1, 1, 1, 1, 1, 1
1.4862096875, 0, 0, 0, 0, 0, 0, 1, 1
1.486210375, 0, 0, 0, 0, 0, 0, 0, 0
1.4862106875, 1, 1, 1, 1, 1, 1, 1, 1
1.4862109375, 0, 0, 0, 0, 0, 0, 1, 0
1.486211625, 0, 0, 0, 0, 0, 0, 0, 0
1.4862119375, 1, 1, 1, 1, 1, 1, 1, 0
1.486212, 1, 1, 1, 1, 1, 1, 1, 1
1.4862121875, 1, 0, 0, 1, 1, 0, 1, 0
1.48621225, 0, 0, 0, 1, 1, 0, 1, 0
1.486212875, 0, 0, 0, 0, 0, 0, 0, 0
1.4862131875, 1, 1, 1, 1, 1, 1, 1, 1
1.4862134375, 0, 0, 1, 0, 0, 1, 0, 0
1.486214125, 0, 0, 0, 0, 0, 0, 0, 0
1.4862144375, 1, 1, 1, 1, 1, 1, 1, 1
1.4862146875, 0, 0, 0, 0, 0, 0, 0, 0
1.4862156875, 1, 1, 1, 1, 1, 1, 1, 1
1.4862159375, 0, 0, 0, 0, 0, 0, 1, 0
1.486216, 0, 0, 0, 0, 0, 0, 0, 0
1.4862169375, 1, 1, 1, 1, 1, 1, 1, 0
1.486217, 1, 1, 1, 1, 1, 1, 1, 1
1.4862171875, 0, 0, 0, 0, 0, 0, 0, 0
1.4862181875, 1, 1, 1, 1, 1, 1, 1, 0
1.48621825, 1, 1, 1, 1, 1, 1, 1, 1
1.4862184375, 1, 0, 0, 0, 0, 0, 1, 0
1.4862185, 0, 0, 0, 0, 0, 0, 0, 0
1.4862194375, 1, 1, 1, 1, 1, 1, 1, 1
1.4862196875, 0, 0, 0, 0, 0, 0, 0, 0
1.4862206875, 1, 1, 1, 1, 1, 1, 1, 1
